T4E98 000:010.704   SEGGER J-Link V8.18 Log File
T4E98 000:011.131   DLL Compiled: Mar  5 2025 14:38:20
T4E98 000:011.143   Logging started @ 2025-11-27 08:19
T4E98 000:011.152   Process: C:\Keil_v5\UV4\UV4.exe
T4E98 000:011.515 - 11.158ms 
T4E98 000:011.650 JLINK_SetWarnOutHandler(...)
T4E98 000:011.661 - 0.127ms 
T4E98 000:011.671 JLINK_OpenEx(...)
T4E98 000:019.271   Firmware: J-Link V9 compiled May  7 2021 16:26:12
T4E98 000:021.537   Firmware: J-Link V9 compiled May  7 2021 16:26:12
T4E98 000:022.079   Decompressing FW timestamp took 289 us
T4E98 000:030.140   Hardware: V9.70
T4E98 000:030.159   S/N: 150714966
T4E98 000:030.168   OEM: SEGGER
T4E98 000:030.178   Feature(s): GDB, RDI, FlashBP, FlashDL, JFlash
T4E98 000:031.885   Bootloader: (FW returned invalid version)
T4E98 000:033.455   TELNET listener socket opened on port 19021
T4E98 000:033.621   WEBSRV WEBSRV_Init(): Starting webserver thread(s)
T4E98 000:033.807   WEBSRV Webserver running on local port 19080
T4E98 000:033.924   Looking for J-Link GUI Server exe at: C:\Keil_v5\ARM\Segger\JLinkGUIServer.exe
T4E98 000:034.055   Looking for J-Link GUI Server exe at: C:\Program Files\SEGGER\JLink_V818\JLinkGUIServer.exe
T4E98 000:034.269   Forking J-Link GUI Server: C:\Program Files\SEGGER\JLink_V818\JLinkGUIServer.exe
T4E98 000:366.071   J-Link GUI Server info: "J-Link GUI server V8.18 "
T4E98 000:371.387 - 359.433ms returns "O.K."
T4E98 000:371.441 JLINK_GetEmuCaps()
T4E98 000:371.453 - 0.008ms returns 0xB9FF7BBF
T4E98 000:371.464 JLINK_TIF_GetAvailable(...)
T4E98 000:371.947 - 0.484ms 
T4E98 000:371.977 JLINK_SetErrorOutHandler(...)
T4E98 000:371.989 - 0.012ms 
T4E98 000:372.494 JLINK_ExecCommand("ProjectFile = "C:\Users\liao9\Downloads\交接\肌力測軟體設計\從機\nRF5_SDK_17.1.0_ddde560\examples\ble_peripheral\ICM20948\pca10056-HJ840\s140\arm5_no_packs-----2\JLinkSettings.ini"", ...). 
T4E98 000:431.355   Ref file found at: C:\Keil_v5\ARM\Segger\JLinkDevices.ref
T4E98 000:431.817   REF file references invalid XML file: C:\Program Files\SEGGER\JLink_V818\JLinkDevices.xml
T4E98 000:433.232 - 60.736ms returns 0x00
T4E98 000:435.390 JLINK_ExecCommand("Device = nRF52840_xxAA", ...). 
T4E98 000:439.468   Device "NRF52840_XXAA" selected.
T4E98 000:440.110 - 4.694ms returns 0x00
T4E98 000:440.144 JLINK_ExecCommand("DisableConnectionTimeout", ...). 
T4E98 000:440.472   ERROR: Unknown command
T4E98 000:440.513 - 0.354ms returns 0x01
T4E98 000:440.530 JLINK_GetHardwareVersion()
T4E98 000:440.544 - 0.013ms returns 97000
T4E98 000:440.556 JLINK_GetDLLVersion()
T4E98 000:440.566 - 0.010ms returns 81800
T4E98 000:440.576 JLINK_GetOEMString(...)
T4E98 000:440.589 JLINK_GetFirmwareString(...)
T4E98 000:440.600 - 0.011ms 
T4E98 000:466.620 JLINK_GetDLLVersion()
T4E98 000:466.665 - 0.045ms returns 81800
T4E98 000:466.672 JLINK_GetCompileDateTime()
T4E98 000:466.679 - 0.006ms 
T4E98 000:468.731 JLINK_GetFirmwareString(...)
T4E98 000:468.754 - 0.022ms 
T4E98 000:470.618 JLINK_GetHardwareVersion()
T4E98 000:470.641 - 0.022ms returns 97000
T4E98 000:472.326 JLINK_GetSN()
T4E98 000:472.346 - 0.019ms returns 150714966
T4E98 000:474.155 JLINK_GetOEMString(...)
T4E98 000:478.017 JLINK_TIF_Select(JLINKARM_TIF_SWD)
T4E98 000:480.194 - 2.495ms returns 0x00
T4E98 000:480.215 JLINK_HasError()
T4E98 000:480.231 JLINK_SetSpeed(5000)
T4E98 000:480.701 - 0.470ms 
T4E98 000:480.730 JLINK_GetId()
T4E98 000:483.683   InitTarget() start
T4E98 000:483.718    J-Link Script File: Executing InitTarget()
T4E98 000:492.913   InitTarget() end - Took 7.24ms
T4E98 000:497.140   Found SW-DP with ID 0x2BA01477
T4E98 000:505.455   DPIDR: 0x2BA01477
T4E98 000:507.263   CoreSight SoC-400 or earlier
T4E98 000:509.122   Scanning AP map to find all available APs
T4E98 000:513.852   AP[2]: Stopped AP scan as end of AP map has been reached
T4E98 000:515.682   AP[0]: AHB-AP (IDR: 0x24770011, ADDR: 0x00000000)
T4E98 000:517.313   AP[1]: JTAG-AP (IDR: 0x02880000, ADDR: 0x01000000)
T4E98 000:518.978   Iterating through AP map to find AHB-AP to use
T4E98 000:522.536   AP[0]: Core found
T4E98 000:524.449   AP[0]: AHB-AP ROM base: 0xE00FF000
T4E98 000:528.020   CPUID register: 0x410FC241. Implementer code: 0x41 (ARM)
T4E98 000:530.439   Found Cortex-M4 r0p1, Little endian.
T4E98 000:532.063   -- Max. mem block: 0x00010C40
T4E98 000:534.050   CPU_ReadMem(4 bytes @ 0xE000EDF0)
T4E98 000:535.019   CPU_WriteMem(4 bytes @ 0xE000EDF0)
T4E98 000:535.997   CPU_ReadMem(4 bytes @ 0xE0002000)
T4E98 000:539.178   FPUnit: 6 code (BP) slots and 2 literal slots
T4E98 000:539.205   CPU_ReadMem(4 bytes @ 0xE000EDFC)
T4E98 000:540.224   CPU_WriteMem(4 bytes @ 0xE000EDFC)
T4E98 000:541.148   CPU_ReadMem(4 bytes @ 0xE0001000)
T4E98 000:542.115   CPU_WriteMem(4 bytes @ 0xE0001000)
T4E98 000:543.081   CPU_ReadMem(4 bytes @ 0xE000ED88)
T4E98 000:543.779   CPU_WriteMem(4 bytes @ 0xE000ED88)
T4E98 000:544.736   CPU_ReadMem(4 bytes @ 0xE000ED88)
T4E98 000:545.499   CPU_WriteMem(4 bytes @ 0xE000ED88)
T4E98 000:548.570   CoreSight components:
T4E98 000:550.381   ROMTbl[0] @ E00FF000
T4E98 000:550.409   CPU_ReadMem(64 bytes @ 0xE00FF000)
T4E98 000:551.783   CPU_ReadMem(32 bytes @ 0xE000EFE0)
T4E98 000:554.965   [0][0]: E000E000 CID B105E00D PID 000BB00C SCS-M7
T4E98 000:554.993   CPU_ReadMem(32 bytes @ 0xE0001FE0)
T4E98 000:558.263   [0][1]: E0001000 CID B105E00D PID 003BB002 DWT
T4E98 000:558.315   CPU_ReadMem(32 bytes @ 0xE0002FE0)
T4E98 000:561.650   [0][2]: E0002000 CID B105E00D PID 002BB003 FPB
T4E98 000:561.722   CPU_ReadMem(32 bytes @ 0xE0000FE0)
T4E98 000:564.790   [0][3]: E0000000 CID B105E00D PID 003BB001 ITM
T4E98 000:564.840   CPU_ReadMem(32 bytes @ 0xE0040FE0)
T4E98 000:568.092   [0][4]: E0040000 CID B105900D PID 000BB9A1 TPIU
T4E98 000:568.142   CPU_ReadMem(32 bytes @ 0xE0041FE0)
T4E98 000:571.377   [0][5]: E0041000 CID B105900D PID 000BB925 ETM
T4E98 000:572.295 - 91.563ms returns 0x2BA01477
T4E98 000:572.369 JLINK_GetDLLVersion()
T4E98 000:572.375 - 0.006ms returns 81800
T4E98 000:572.392 JLINK_CORE_GetFound()
T4E98 000:572.398 - 0.006ms returns 0xE0000FF
T4E98 000:572.405 JLINK_GetDebugInfo(0x100 = JLINKARM_ROM_TABLE_ADDR_INDEX)
T4E98 000:572.416   Value=0xE00FF000
T4E98 000:572.424 - 0.019ms returns 0
T4E98 000:574.645 JLINK_GetDebugInfo(0x100 = JLINKARM_ROM_TABLE_ADDR_INDEX)
T4E98 000:574.669   Value=0xE00FF000
T4E98 000:574.678 - 0.033ms returns 0
T4E98 000:574.685 JLINK_GetDebugInfo(0x101 = JLINKARM_DEBUG_INFO_ETM_ADDR_INDEX)
T4E98 000:574.692   Value=0xE0041000
T4E98 000:574.701 - 0.016ms returns 0
T4E98 000:574.708 JLINK_ReadMemEx(0xE0041FD0, 0x20 Bytes, Flags = 0x02000004)
T4E98 000:575.228   CPU_ReadMem(32 bytes @ 0xE0041FD0)
T4E98 000:576.341   Data:  04 00 00 00 00 00 00 00 00 00 00 00 00 00 00 00 ...
T4E98 000:576.392 - 1.683ms returns 32 (0x20)
T4E98 000:576.411 JLINK_GetDebugInfo(0x102 = JLINKARM_DEBUG_INFO_MTB_ADDR_INDEX)
T4E98 000:576.419   Value=0x00000000
T4E98 000:576.429 - 0.018ms returns 0
T4E98 000:576.437 JLINK_GetDebugInfo(0x103 = JLINKARM_DEBUG_INFO_TPIU_ADDR_INDEX)
T4E98 000:576.443   Value=0xE0040000
T4E98 000:576.452 - 0.014ms returns 0
T4E98 000:576.458 JLINK_GetDebugInfo(0x104 = JLINKARM_DEBUG_INFO_ITM_ADDR_INDEX)
T4E98 000:576.464   Value=0xE0000000
T4E98 000:576.472 - 0.014ms returns 0
T4E98 000:576.478 JLINK_GetDebugInfo(0x105 = JLINKARM_DEBUG_INFO_DWT_ADDR_INDEX)
T4E98 000:576.484   Value=0xE0001000
T4E98 000:576.492 - 0.014ms returns 0
T4E98 000:576.499 JLINK_GetDebugInfo(0x106 = JLINKARM_DEBUG_INFO_FPB_ADDR_INDEX)
T4E98 000:576.504   Value=0xE0002000
T4E98 000:576.512 - 0.014ms returns 0
T4E98 000:576.519 JLINK_GetDebugInfo(0x107 = JLINKARM_DEBUG_INFO_NVIC_ADDR_INDEX)
T4E98 000:576.526   Value=0xE000E000
T4E98 000:576.534 - 0.014ms returns 0
T4E98 000:576.540 JLINK_GetDebugInfo(0x10C = JLINKARM_DEBUG_INFO_DBG_ADDR_INDEX)
T4E98 000:576.546   Value=0xE000EDF0
T4E98 000:576.554 - 0.013ms returns 0
T4E98 000:576.560 JLINK_GetDebugInfo(0x01 = Unknown)
T4E98 000:576.566   Value=0x00000001
T4E98 000:576.574 - 0.014ms returns 0
T4E98 000:576.583 JLINK_ReadMemU32(0xE000ED00, 0x1 Items)
T4E98 000:576.598   CPU_ReadMem(4 bytes @ 0xE000ED00)
T4E98 000:577.669   Data:  41 C2 0F 41
T4E98 000:577.693   Debug reg: CPUID
T4E98 000:577.703 - 1.120ms returns 1 (0x1)
T4E98 000:577.712 JLINK_GetDebugInfo(0x10F = JLINKARM_DEBUG_INFO_HAS_CORTEX_M_SECURITY_EXT_INDEX)
T4E98 000:577.718   Value=0x00000000
T4E98 000:577.727 - 0.014ms returns 0
T4E98 000:577.734 JLINK_HasError()
T4E98 000:577.742 JLINK_SetResetType(JLINKARM_CM3_RESET_TYPE_NORMAL)
T4E98 000:577.748 - 0.006ms returns JLINKARM_CM3_RESET_TYPE_NORMAL
T4E98 000:577.754 JLINK_Reset()
T4E98 000:577.764   JLINK_GetResetTypeDesc
T4E98 000:577.771   - 0.006ms 
T4E98 000:580.247   Reset type: NORMAL (https://wiki.segger.com/J-Link_Reset_Strategies)
T4E98 000:580.292   CPU is running
T4E98 000:580.310   CPU_WriteMem(4 bytes @ 0xE000EDF0)
T4E98 000:581.352   CPU is running
T4E98 000:581.407   CPU_WriteMem(4 bytes @ 0xE000EDFC)
T4E98 000:584.386   Reset: Halt core after reset via DEMCR.VC_CORERESET.
T4E98 000:588.510   Reset: Reset device via AIRCR.SYSRESETREQ.
T4E98 000:588.562   CPU is running
T4E98 000:588.577   CPU_WriteMem(4 bytes @ 0xE000ED0C)
T4E98 000:644.008   CPU_ReadMem(4 bytes @ 0xE000EDF0)
T4E98 000:644.919   CPU_ReadMem(4 bytes @ 0xE000EDF0)
T4E98 000:648.887   CPU_WriteMem(4 bytes @ 0xE000EDFC)
T4E98 000:655.923   CPU_ReadMem(4 bytes @ 0xE000EDF0)
T4E98 000:660.149   CPU_WriteMem(4 bytes @ 0xE0002000)
T4E98 000:661.265   CPU_ReadMem(4 bytes @ 0xE000EDFC)
T4E98 000:662.165   CPU_ReadMem(4 bytes @ 0xE0001000)
T4E98 000:663.178 - 85.422ms 
T4E98 000:663.229 JLINK_Halt()
T4E98 000:663.240 - 0.010ms returns 0x00
T4E98 000:663.251 JLINK_ReadMemU32(0xE000EDF0, 0x1 Items)
T4E98 000:663.272   CPU_ReadMem(4 bytes @ 0xE000EDF0)
T4E98 000:664.261   Data:  03 00 03 00
T4E98 000:664.332   Debug reg: DHCSR
T4E98 000:664.364 - 1.112ms returns 1 (0x1)
T4E98 000:664.409 JLINK_WriteU32(0xE000EDF0, 0xA05F0003)
T4E98 000:664.430   Debug reg: DHCSR
T4E98 000:665.044   CPU_WriteMem(4 bytes @ 0xE000EDF0)
T4E98 000:666.015 - 1.605ms returns 0 (0x00000000)
T4E98 000:666.114 JLINK_WriteU32(0xE000EDFC, 0x01000000)
T4E98 000:666.149   Debug reg: DEMCR
T4E98 000:666.205   CPU_WriteMem(4 bytes @ 0xE000EDFC)
T4E98 000:666.941 - 0.827ms returns 0 (0x00000000)
T4E98 000:676.476 JLINK_GetHWStatus(...)
T4E98 000:677.403 - 0.925ms returns 0
T4E98 000:685.387 JLINK_GetNumBPUnits(Type = 0xFFFFFF00)
T4E98 000:685.448 - 0.061ms returns 0x06
T4E98 000:685.461 JLINK_GetNumBPUnits(Type = 0xF0)
T4E98 000:685.472 - 0.011ms returns 0x2000
T4E98 000:685.484 JLINK_GetNumWPUnits()
T4E98 000:685.495 - 0.010ms returns 4
T4E98 000:691.224 JLINK_GetSpeed()
T4E98 000:691.251 - 0.026ms returns 4000
T4E98 000:694.303 JLINK_ReadMemU32(0xE000E004, 0x1 Items)
T4E98 000:694.339   CPU_ReadMem(4 bytes @ 0xE000E004)
T4E98 000:695.273   Data:  01 00 00 00
T4E98 000:695.327 - 1.024ms returns 1 (0x1)
T4E98 000:695.341 JLINK_ReadMemU32(0xE000E004, 0x1 Items)
T4E98 000:695.360   CPU_ReadMem(4 bytes @ 0xE000E004)
T4E98 000:696.191   Data:  01 00 00 00
T4E98 000:696.220 - 0.879ms returns 1 (0x1)
T4E98 000:696.231 JLINK_WriteMemEx(0xE0001000, 0x0000001C Bytes, Flags = 0x02000004)
T4E98 000:696.238   Data:  01 00 00 00 00 00 00 00 00 00 00 00 00 00 00 00 ...
T4E98 000:696.257   CPU_WriteMem(28 bytes @ 0xE0001000)
T4E98 000:697.086 - 0.854ms returns 0x1C
T4E98 000:697.113 JLINK_Halt()
T4E98 000:697.121 - 0.007ms returns 0x00
T4E98 000:697.128 JLINK_IsHalted()
T4E98 000:697.135 - 0.007ms returns TRUE
T4E98 000:710.571 JLINK_WriteMem(0x20000000, 0x5B8 Bytes, ...)
T4E98 000:710.593   Data:  00 BE 0A E0 0D 78 2D 06 68 40 08 24 40 00 00 D3 ...
T4E98 000:710.821   CPU_WriteMem(1464 bytes @ 0x20000000)
T4E98 000:716.304 - 5.731ms returns 0x5B8
T4E98 000:716.415 JLINK_HasError()
T4E98 000:716.427 JLINK_WriteReg(R0, 0x00000000)
T4E98 000:716.437 - 0.010ms returns 0
T4E98 000:716.444 JLINK_WriteReg(R1, 0x03D09000)
T4E98 000:716.450 - 0.006ms returns 0
T4E98 000:716.457 JLINK_WriteReg(R2, 0x00000001)
T4E98 000:716.463 - 0.006ms returns 0
T4E98 000:716.469 JLINK_WriteReg(R3, 0x00000000)
T4E98 000:716.480 - 0.010ms returns 0
T4E98 000:716.490 JLINK_WriteReg(R4, 0x00000000)
T4E98 000:716.496 - 0.006ms returns 0
T4E98 000:716.503 JLINK_WriteReg(R5, 0x00000000)
T4E98 000:716.509 - 0.005ms returns 0
T4E98 000:716.515 JLINK_WriteReg(R6, 0x00000000)
T4E98 000:716.521 - 0.005ms returns 0
T4E98 000:716.527 JLINK_WriteReg(R7, 0x00000000)
T4E98 000:716.534 - 0.006ms returns 0
T4E98 000:716.863 JLINK_WriteReg(R8, 0x00000000)
T4E98 000:716.884 - 0.344ms returns 0
T4E98 000:716.897 JLINK_WriteReg(R9, 0x200005B4)
T4E98 000:716.904 - 0.007ms returns 0
T4E98 000:716.910 JLINK_WriteReg(R10, 0x00000000)
T4E98 000:716.916 - 0.006ms returns 0
T4E98 000:716.923 JLINK_WriteReg(R11, 0x00000000)
T4E98 000:716.929 - 0.006ms returns 0
T4E98 000:716.935 JLINK_WriteReg(R12, 0x00000000)
T4E98 000:716.941 - 0.006ms returns 0
T4E98 000:716.948 JLINK_WriteReg(R13 (SP), 0x20002000)
T4E98 000:716.954 - 0.006ms returns 0
T4E98 000:716.961 JLINK_WriteReg(R14, 0x20000001)
T4E98 000:716.967 - 0.006ms returns 0
T4E98 000:716.977 JLINK_WriteReg(R15 (PC), 0x20000020)
T4E98 000:716.983 - 0.010ms returns 0
T4E98 000:716.990 JLINK_WriteReg(XPSR, 0x01000000)
T4E98 000:716.996 - 0.006ms returns 0
T4E98 000:717.002 JLINK_WriteReg(MSP, 0x20002000)
T4E98 000:717.008 - 0.005ms returns 0
T4E98 000:717.014 JLINK_WriteReg(PSP, 0x20002000)
T4E98 000:717.020 - 0.005ms returns 0
T4E98 000:717.027 JLINK_WriteReg(CFBP, 0x00000000)
T4E98 000:717.032 - 0.005ms returns 0
T4E98 000:717.040 JLINK_SetBPEx(Addr = 0x20000000, Type = 0xFFFFFFF2)
T4E98 000:717.054   CPU_ReadMem(2 bytes @ 0x20000000)
T4E98 000:718.061 - 1.020ms returns 0x00000001
T4E98 000:718.113 JLINK_Go()
T4E98 000:718.133   CPU_WriteMem(2 bytes @ 0x20000000)
T4E98 000:719.159   CPU_ReadMem(4 bytes @ 0xE0001000)
T4E98 000:719.988   CPU_WriteMem(4 bytes @ 0xE0002008)
T4E98 000:720.008   CPU_WriteMem(4 bytes @ 0xE000200C)
T4E98 000:720.022   CPU_WriteMem(4 bytes @ 0xE0002010)
T4E98 000:720.032   CPU_WriteMem(4 bytes @ 0xE0002014)
T4E98 000:720.042   CPU_WriteMem(4 bytes @ 0xE0002018)
T4E98 000:720.050   CPU_WriteMem(4 bytes @ 0xE000201C)
T4E98 000:721.766   CPU_WriteMem(4 bytes @ 0xE0001004)
T4E98 000:728.970   Memory map 'after startup completion point' is active
T4E98 000:729.020 - 10.905ms 
T4E98 000:729.039 JLINK_IsHalted()
T4E98 000:732.203   CPU_ReadMem(2 bytes @ 0x20000000)
T4E98 000:733.316 - 4.275ms returns TRUE
T4E98 000:733.379 JLINK_ReadReg(R15 (PC))
T4E98 000:733.390 - 0.011ms returns 0x20000000
T4E98 000:733.398 JLINK_ClrBPEx(BPHandle = 0x00000001)
T4E98 000:733.405 - 0.006ms returns 0x00
T4E98 000:733.412 JLINK_ReadReg(R0)
T4E98 000:733.419 - 0.006ms returns 0x00000000
T4E98 000:734.650 JLINK_HasError()
T4E98 000:734.685 JLINK_WriteReg(R0, 0x00027000)
T4E98 000:734.695 - 0.009ms returns 0
T4E98 000:734.702 JLINK_WriteReg(R1, 0x00001000)
T4E98 000:734.708 - 0.006ms returns 0
T4E98 000:734.714 JLINK_WriteReg(R2, 0x000000FF)
T4E98 000:734.721 - 0.006ms returns 0
T4E98 000:734.727 JLINK_WriteReg(R3, 0x00000000)
T4E98 000:734.733 - 0.005ms returns 0
T4E98 000:734.739 JLINK_WriteReg(R4, 0x00000000)
T4E98 000:734.745 - 0.005ms returns 0
T4E98 000:734.752 JLINK_WriteReg(R5, 0x00000000)
T4E98 000:734.757 - 0.005ms returns 0
T4E98 000:734.764 JLINK_WriteReg(R6, 0x00000000)
T4E98 000:734.770 - 0.005ms returns 0
T4E98 000:734.776 JLINK_WriteReg(R7, 0x00000000)
T4E98 000:734.782 - 0.005ms returns 0
T4E98 000:734.788 JLINK_WriteReg(R8, 0x00000000)
T4E98 000:734.794 - 0.005ms returns 0
T4E98 000:734.800 JLINK_WriteReg(R9, 0x200005B4)
T4E98 000:734.806 - 0.005ms returns 0
T4E98 000:734.813 JLINK_WriteReg(R10, 0x00000000)
T4E98 000:734.819 - 0.006ms returns 0
T4E98 000:734.833 JLINK_WriteReg(R11, 0x00000000)
T4E98 000:734.839 - 0.006ms returns 0
T4E98 000:734.846 JLINK_WriteReg(R12, 0x00000000)
T4E98 000:734.853 - 0.006ms returns 0
T4E98 000:734.859 JLINK_WriteReg(R13 (SP), 0x20002000)
T4E98 000:734.866 - 0.006ms returns 0
T4E98 000:734.873 JLINK_WriteReg(R14, 0x20000001)
T4E98 000:734.879 - 0.006ms returns 0
T4E98 000:734.932 JLINK_WriteReg(R15 (PC), 0x20000288)
T4E98 000:734.942 - 0.010ms returns 0
T4E98 000:734.948 JLINK_WriteReg(XPSR, 0x01000000)
T4E98 000:734.954 - 0.006ms returns 0
T4E98 000:734.961 JLINK_WriteReg(MSP, 0x20002000)
T4E98 000:734.967 - 0.005ms returns 0
T4E98 000:734.973 JLINK_WriteReg(PSP, 0x20002000)
T4E98 000:734.979 - 0.005ms returns 0
T4E98 000:734.985 JLINK_WriteReg(CFBP, 0x00000000)
T4E98 000:734.991 - 0.005ms returns 0
T4E98 000:734.998 JLINK_SetBPEx(Addr = 0x20000000, Type = 0xFFFFFFF2)
T4E98 000:735.006 - 0.008ms returns 0x00000002
T4E98 000:735.013 JLINK_Go()
T4E98 000:735.030   CPU_ReadMem(4 bytes @ 0xE0001000)
T4E98 000:739.378 - 4.364ms 
T4E98 000:739.404 JLINK_IsHalted()
T4E98 000:742.513   CPU_ReadMem(2 bytes @ 0x20000000)
T4E98 000:743.337 - 3.931ms returns TRUE
T4E98 000:743.363 JLINK_ReadReg(R15 (PC))
T4E98 000:743.373 - 0.009ms returns 0x20000000
T4E98 000:743.381 JLINK_ClrBPEx(BPHandle = 0x00000002)
T4E98 000:743.388 - 0.007ms returns 0x00
T4E98 000:743.396 JLINK_ReadReg(R0)
T4E98 000:743.403 - 0.006ms returns 0x00000000
T4E98 000:743.873 JLINK_HasError()
T4E98 000:743.890 JLINK_WriteReg(R0, 0x00028000)
T4E98 000:743.898 - 0.008ms returns 0
T4E98 000:743.911 JLINK_WriteReg(R1, 0x00001000)
T4E98 000:743.919 - 0.007ms returns 0
T4E98 000:743.927 JLINK_WriteReg(R2, 0x000000FF)
T4E98 000:743.934 - 0.007ms returns 0
T4E98 000:743.941 JLINK_WriteReg(R3, 0x00000000)
T4E98 000:743.948 - 0.007ms returns 0
T4E98 000:743.956 JLINK_WriteReg(R4, 0x00000000)
T4E98 000:743.962 - 0.006ms returns 0
T4E98 000:743.969 JLINK_WriteReg(R5, 0x00000000)
T4E98 000:743.975 - 0.006ms returns 0
T4E98 000:743.982 JLINK_WriteReg(R6, 0x00000000)
T4E98 000:743.989 - 0.006ms returns 0
T4E98 000:743.997 JLINK_WriteReg(R7, 0x00000000)
T4E98 000:744.003 - 0.006ms returns 0
T4E98 000:744.011 JLINK_WriteReg(R8, 0x00000000)
T4E98 000:744.017 - 0.006ms returns 0
T4E98 000:744.024 JLINK_WriteReg(R9, 0x200005B4)
T4E98 000:744.031 - 0.006ms returns 0
T4E98 000:744.038 JLINK_WriteReg(R10, 0x00000000)
T4E98 000:744.045 - 0.006ms returns 0
T4E98 000:744.051 JLINK_WriteReg(R11, 0x00000000)
T4E98 000:744.058 - 0.006ms returns 0
T4E98 000:744.065 JLINK_WriteReg(R12, 0x00000000)
T4E98 000:744.071 - 0.006ms returns 0
T4E98 000:744.078 JLINK_WriteReg(R13 (SP), 0x20002000)
T4E98 000:744.085 - 0.006ms returns 0
T4E98 000:744.092 JLINK_WriteReg(R14, 0x20000001)
T4E98 000:744.099 - 0.006ms returns 0
T4E98 000:744.106 JLINK_WriteReg(R15 (PC), 0x20000288)
T4E98 000:744.114 - 0.008ms returns 0
T4E98 000:744.122 JLINK_WriteReg(XPSR, 0x01000000)
T4E98 000:744.129 - 0.007ms returns 0
T4E98 000:744.137 JLINK_WriteReg(MSP, 0x20002000)
T4E98 000:744.143 - 0.006ms returns 0
T4E98 000:744.151 JLINK_WriteReg(PSP, 0x20002000)
T4E98 000:744.157 - 0.006ms returns 0
T4E98 000:744.165 JLINK_WriteReg(CFBP, 0x00000000)
T4E98 000:744.171 - 0.006ms returns 0
T4E98 000:744.179 JLINK_SetBPEx(Addr = 0x20000000, Type = 0xFFFFFFF2)
T4E98 000:744.186 - 0.007ms returns 0x00000003
T4E98 000:744.193 JLINK_Go()
T4E98 000:744.207   CPU_ReadMem(4 bytes @ 0xE0001000)
T4E98 000:748.355 - 4.160ms 
T4E98 000:748.406 JLINK_IsHalted()
T4E98 000:751.838   CPU_ReadMem(2 bytes @ 0x20000000)
T4E98 000:752.839 - 4.432ms returns TRUE
T4E98 000:752.862 JLINK_ReadReg(R15 (PC))
T4E98 000:752.872 - 0.010ms returns 0x20000000
T4E98 000:752.880 JLINK_ClrBPEx(BPHandle = 0x00000003)
T4E98 000:752.888 - 0.007ms returns 0x00
T4E98 000:752.895 JLINK_ReadReg(R0)
T4E98 000:752.902 - 0.006ms returns 0x00000000
T4E98 000:753.470 JLINK_HasError()
T4E98 000:753.489 JLINK_WriteReg(R0, 0x00029000)
T4E98 000:753.498 - 0.008ms returns 0
T4E98 000:753.505 JLINK_WriteReg(R1, 0x00001000)
T4E98 000:753.512 - 0.006ms returns 0
T4E98 000:753.527 JLINK_WriteReg(R2, 0x000000FF)
T4E98 000:753.535 - 0.007ms returns 0
T4E98 000:753.543 JLINK_WriteReg(R3, 0x00000000)
T4E98 000:753.550 - 0.006ms returns 0
T4E98 000:753.557 JLINK_WriteReg(R4, 0x00000000)
T4E98 000:753.565 - 0.007ms returns 0
T4E98 000:753.573 JLINK_WriteReg(R5, 0x00000000)
T4E98 000:753.585 - 0.012ms returns 0
T4E98 000:753.596 JLINK_WriteReg(R6, 0x00000000)
T4E98 000:753.603 - 0.006ms returns 0
T4E98 000:753.610 JLINK_WriteReg(R7, 0x00000000)
T4E98 000:753.617 - 0.006ms returns 0
T4E98 000:753.624 JLINK_WriteReg(R8, 0x00000000)
T4E98 000:753.631 - 0.006ms returns 0
T4E98 000:753.638 JLINK_WriteReg(R9, 0x200005B4)
T4E98 000:753.645 - 0.006ms returns 0
T4E98 000:753.652 JLINK_WriteReg(R10, 0x00000000)
T4E98 000:753.659 - 0.006ms returns 0
T4E98 000:753.666 JLINK_WriteReg(R11, 0x00000000)
T4E98 000:753.673 - 0.006ms returns 0
T4E98 000:753.680 JLINK_WriteReg(R12, 0x00000000)
T4E98 000:753.686 - 0.006ms returns 0
T4E98 000:753.694 JLINK_WriteReg(R13 (SP), 0x20002000)
T4E98 000:753.701 - 0.007ms returns 0
T4E98 000:753.708 JLINK_WriteReg(R14, 0x20000001)
T4E98 000:753.715 - 0.006ms returns 0
T4E98 000:753.722 JLINK_WriteReg(R15 (PC), 0x20000288)
T4E98 000:753.728 - 0.006ms returns 0
T4E98 000:753.736 JLINK_WriteReg(XPSR, 0x01000000)
T4E98 000:753.780 - 0.044ms returns 0
T4E98 000:753.788 JLINK_WriteReg(MSP, 0x20002000)
T4E98 000:753.794 - 0.006ms returns 0
T4E98 000:753.802 JLINK_WriteReg(PSP, 0x20002000)
T4E98 000:753.813 - 0.010ms returns 0
T4E98 000:753.820 JLINK_WriteReg(CFBP, 0x00000000)
T4E98 000:753.826 - 0.006ms returns 0
T4E98 000:753.834 JLINK_SetBPEx(Addr = 0x20000000, Type = 0xFFFFFFF2)
T4E98 000:753.842 - 0.007ms returns 0x00000004
T4E98 000:753.849 JLINK_Go()
T4E98 000:753.864   CPU_ReadMem(4 bytes @ 0xE0001000)
T4E98 000:758.221 - 4.370ms 
T4E98 000:758.276 JLINK_IsHalted()
T4E98 000:758.974 - 0.697ms returns FALSE
T4E98 000:759.015 JLINK_HasError()
T4E98 000:769.854 JLINK_IsHalted()
T4E98 000:773.427   CPU_ReadMem(2 bytes @ 0x20000000)
T4E98 000:774.315 - 4.463ms returns TRUE
T4E98 000:774.340 JLINK_ReadReg(R15 (PC))
T4E98 000:774.350 - 0.009ms returns 0x20000000
T4E98 000:774.357 JLINK_ClrBPEx(BPHandle = 0x00000004)
T4E98 000:774.363 - 0.006ms returns 0x00
T4E98 000:774.370 JLINK_ReadReg(R0)
T4E98 000:774.376 - 0.006ms returns 0x00000000
T4E98 000:775.149 JLINK_HasError()
T4E98 000:775.187 JLINK_WriteReg(R0, 0x0002A000)
T4E98 000:775.196 - 0.009ms returns 0
T4E98 000:775.203 JLINK_WriteReg(R1, 0x00001000)
T4E98 000:775.209 - 0.006ms returns 0
T4E98 000:775.216 JLINK_WriteReg(R2, 0x000000FF)
T4E98 000:775.222 - 0.005ms returns 0
T4E98 000:775.228 JLINK_WriteReg(R3, 0x00000000)
T4E98 000:775.234 - 0.005ms returns 0
T4E98 000:775.241 JLINK_WriteReg(R4, 0x00000000)
T4E98 000:775.247 - 0.005ms returns 0
T4E98 000:775.253 JLINK_WriteReg(R5, 0x00000000)
T4E98 000:775.259 - 0.005ms returns 0
T4E98 000:775.265 JLINK_WriteReg(R6, 0x00000000)
T4E98 000:775.271 - 0.006ms returns 0
T4E98 000:775.278 JLINK_WriteReg(R7, 0x00000000)
T4E98 000:775.283 - 0.005ms returns 0
T4E98 000:775.290 JLINK_WriteReg(R8, 0x00000000)
T4E98 000:775.295 - 0.005ms returns 0
T4E98 000:775.302 JLINK_WriteReg(R9, 0x200005B4)
T4E98 000:775.308 - 0.005ms returns 0
T4E98 000:775.314 JLINK_WriteReg(R10, 0x00000000)
T4E98 000:775.320 - 0.006ms returns 0
T4E98 000:775.327 JLINK_WriteReg(R11, 0x00000000)
T4E98 000:775.333 - 0.006ms returns 0
T4E98 000:775.339 JLINK_WriteReg(R12, 0x00000000)
T4E98 000:775.346 - 0.006ms returns 0
T4E98 000:775.353 JLINK_WriteReg(R13 (SP), 0x20002000)
T4E98 000:775.359 - 0.007ms returns 0
T4E98 000:775.366 JLINK_WriteReg(R14, 0x20000001)
T4E98 000:775.372 - 0.005ms returns 0
T4E98 000:775.378 JLINK_WriteReg(R15 (PC), 0x20000288)
T4E98 000:775.384 - 0.006ms returns 0
T4E98 000:775.391 JLINK_WriteReg(XPSR, 0x01000000)
T4E98 000:775.397 - 0.005ms returns 0
T4E98 000:775.403 JLINK_WriteReg(MSP, 0x20002000)
T4E98 000:775.409 - 0.005ms returns 0
T4E98 000:775.415 JLINK_WriteReg(PSP, 0x20002000)
T4E98 000:775.421 - 0.006ms returns 0
T4E98 000:775.428 JLINK_WriteReg(CFBP, 0x00000000)
T4E98 000:775.434 - 0.005ms returns 0
T4E98 000:775.440 JLINK_SetBPEx(Addr = 0x20000000, Type = 0xFFFFFFF2)
T4E98 000:775.447 - 0.007ms returns 0x00000005
T4E98 000:775.454 JLINK_Go()
T4E98 000:775.469   CPU_ReadMem(4 bytes @ 0xE0001000)
T4E98 000:779.439 - 3.984ms 
T4E98 000:779.490 JLINK_IsHalted()
T4E98 000:782.730   CPU_ReadMem(2 bytes @ 0x20000000)
T4E98 000:783.662 - 4.171ms returns TRUE
T4E98 000:783.681 JLINK_ReadReg(R15 (PC))
T4E98 000:783.696 - 0.014ms returns 0x20000000
T4E98 000:783.704 JLINK_ClrBPEx(BPHandle = 0x00000005)
T4E98 000:783.711 - 0.007ms returns 0x00
T4E98 000:783.718 JLINK_ReadReg(R0)
T4E98 000:783.724 - 0.006ms returns 0x00000000
T4E98 000:784.219 JLINK_HasError()
T4E98 000:784.233 JLINK_WriteReg(R0, 0x0002B000)
T4E98 000:784.240 - 0.007ms returns 0
T4E98 000:784.247 JLINK_WriteReg(R1, 0x00001000)
T4E98 000:784.253 - 0.005ms returns 0
T4E98 000:784.259 JLINK_WriteReg(R2, 0x000000FF)
T4E98 000:784.265 - 0.005ms returns 0
T4E98 000:784.272 JLINK_WriteReg(R3, 0x00000000)
T4E98 000:784.278 - 0.005ms returns 0
T4E98 000:784.284 JLINK_WriteReg(R4, 0x00000000)
T4E98 000:784.290 - 0.005ms returns 0
T4E98 000:784.296 JLINK_WriteReg(R5, 0x00000000)
T4E98 000:784.302 - 0.005ms returns 0
T4E98 000:784.308 JLINK_WriteReg(R6, 0x00000000)
T4E98 000:784.314 - 0.005ms returns 0
T4E98 000:784.320 JLINK_WriteReg(R7, 0x00000000)
T4E98 000:784.326 - 0.005ms returns 0
T4E98 000:784.332 JLINK_WriteReg(R8, 0x00000000)
T4E98 000:784.338 - 0.005ms returns 0
T4E98 000:784.344 JLINK_WriteReg(R9, 0x200005B4)
T4E98 000:784.350 - 0.005ms returns 0
T4E98 000:784.357 JLINK_WriteReg(R10, 0x00000000)
T4E98 000:784.363 - 0.005ms returns 0
T4E98 000:784.370 JLINK_WriteReg(R11, 0x00000000)
T4E98 000:784.375 - 0.005ms returns 0
T4E98 000:784.382 JLINK_WriteReg(R12, 0x00000000)
T4E98 000:784.388 - 0.006ms returns 0
T4E98 000:784.394 JLINK_WriteReg(R13 (SP), 0x20002000)
T4E98 000:784.401 - 0.006ms returns 0
T4E98 000:784.407 JLINK_WriteReg(R14, 0x20000001)
T4E98 000:784.413 - 0.005ms returns 0
T4E98 000:784.420 JLINK_WriteReg(R15 (PC), 0x20000288)
T4E98 000:784.426 - 0.006ms returns 0
T4E98 000:784.433 JLINK_WriteReg(XPSR, 0x01000000)
T4E98 000:784.439 - 0.006ms returns 0
T4E98 000:784.445 JLINK_WriteReg(MSP, 0x20002000)
T4E98 000:784.451 - 0.006ms returns 0
T4E98 000:784.457 JLINK_WriteReg(PSP, 0x20002000)
T4E98 000:784.463 - 0.005ms returns 0
T4E98 000:784.470 JLINK_WriteReg(CFBP, 0x00000000)
T4E98 000:784.475 - 0.005ms returns 0
T4E98 000:784.482 JLINK_SetBPEx(Addr = 0x20000000, Type = 0xFFFFFFF2)
T4E98 000:784.489 - 0.007ms returns 0x00000006
T4E98 000:784.496 JLINK_Go()
T4E98 000:784.508   CPU_ReadMem(4 bytes @ 0xE0001000)
T4E98 000:788.992 - 4.494ms 
T4E98 000:789.069 JLINK_IsHalted()
T4E98 000:789.633 - 0.563ms returns FALSE
T4E98 000:789.832 JLINK_HasError()
T4E98 000:793.061 JLINK_IsHalted()
T4E98 000:796.155   CPU_ReadMem(2 bytes @ 0x20000000)
T4E98 000:796.755 - 3.693ms returns TRUE
T4E98 000:796.781 JLINK_ReadReg(R15 (PC))
T4E98 000:796.796 - 0.014ms returns 0x20000000
T4E98 000:796.808 JLINK_ClrBPEx(BPHandle = 0x00000006)
T4E98 000:796.815 - 0.008ms returns 0x00
T4E98 000:796.824 JLINK_ReadReg(R0)
T4E98 000:796.831 - 0.007ms returns 0x00000000
T4E98 000:797.415 JLINK_HasError()
T4E98 000:797.449 JLINK_WriteReg(R0, 0x0002C000)
T4E98 000:797.458 - 0.009ms returns 0
T4E98 000:797.466 JLINK_WriteReg(R1, 0x00001000)
T4E98 000:797.472 - 0.006ms returns 0
T4E98 000:797.480 JLINK_WriteReg(R2, 0x000000FF)
T4E98 000:797.487 - 0.006ms returns 0
T4E98 000:797.494 JLINK_WriteReg(R3, 0x00000000)
T4E98 000:797.500 - 0.006ms returns 0
T4E98 000:797.507 JLINK_WriteReg(R4, 0x00000000)
T4E98 000:797.514 - 0.006ms returns 0
T4E98 000:797.521 JLINK_WriteReg(R5, 0x00000000)
T4E98 000:797.528 - 0.006ms returns 0
T4E98 000:797.535 JLINK_WriteReg(R6, 0x00000000)
T4E98 000:797.541 - 0.006ms returns 0
T4E98 000:797.549 JLINK_WriteReg(R7, 0x00000000)
T4E98 000:797.555 - 0.006ms returns 0
T4E98 000:797.562 JLINK_WriteReg(R8, 0x00000000)
T4E98 000:797.569 - 0.006ms returns 0
T4E98 000:797.576 JLINK_WriteReg(R9, 0x200005B4)
T4E98 000:797.586 - 0.010ms returns 0
T4E98 000:797.594 JLINK_WriteReg(R10, 0x00000000)
T4E98 000:797.600 - 0.006ms returns 0
T4E98 000:797.607 JLINK_WriteReg(R11, 0x00000000)
T4E98 000:797.624 - 0.016ms returns 0
T4E98 000:797.632 JLINK_WriteReg(R12, 0x00000000)
T4E98 000:797.638 - 0.006ms returns 0
T4E98 000:797.646 JLINK_WriteReg(R13 (SP), 0x20002000)
T4E98 000:797.653 - 0.007ms returns 0
T4E98 000:797.660 JLINK_WriteReg(R14, 0x20000001)
T4E98 000:797.666 - 0.006ms returns 0
T4E98 000:797.674 JLINK_WriteReg(R15 (PC), 0x20000288)
T4E98 000:797.680 - 0.006ms returns 0
T4E98 000:797.687 JLINK_WriteReg(XPSR, 0x01000000)
T4E98 000:797.694 - 0.006ms returns 0
T4E98 000:797.701 JLINK_WriteReg(MSP, 0x20002000)
T4E98 000:797.707 - 0.006ms returns 0
T4E98 000:797.715 JLINK_WriteReg(PSP, 0x20002000)
T4E98 000:797.722 - 0.006ms returns 0
T4E98 000:797.729 JLINK_WriteReg(CFBP, 0x00000000)
T4E98 000:797.735 - 0.006ms returns 0
T4E98 000:797.743 JLINK_SetBPEx(Addr = 0x20000000, Type = 0xFFFFFFF2)
T4E98 000:797.750 - 0.007ms returns 0x00000007
T4E98 000:797.758 JLINK_Go()
T4E98 000:797.772   CPU_ReadMem(4 bytes @ 0xE0001000)
T4E98 000:800.692 - 2.933ms 
T4E98 000:800.717 JLINK_IsHalted()
T4E98 000:801.246 - 0.528ms returns FALSE
T4E98 000:801.256 JLINK_HasError()
T4E98 000:802.828 JLINK_IsHalted()
T4E98 000:805.452   CPU_ReadMem(2 bytes @ 0x20000000)
T4E98 000:806.030 - 3.202ms returns TRUE
T4E98 000:806.040 JLINK_ReadReg(R15 (PC))
T4E98 000:806.048 - 0.008ms returns 0x20000000
T4E98 000:806.056 JLINK_ClrBPEx(BPHandle = 0x00000007)
T4E98 000:806.063 - 0.007ms returns 0x00
T4E98 000:806.070 JLINK_ReadReg(R0)
T4E98 000:806.077 - 0.006ms returns 0x00000000
T4E98 000:806.487 JLINK_HasError()
T4E98 000:806.502 JLINK_WriteReg(R0, 0x0002D000)
T4E98 000:806.509 - 0.007ms returns 0
T4E98 000:806.517 JLINK_WriteReg(R1, 0x00001000)
T4E98 000:806.523 - 0.006ms returns 0
T4E98 000:806.531 JLINK_WriteReg(R2, 0x000000FF)
T4E98 000:806.537 - 0.006ms returns 0
T4E98 000:806.544 JLINK_WriteReg(R3, 0x00000000)
T4E98 000:806.551 - 0.006ms returns 0
T4E98 000:806.558 JLINK_WriteReg(R4, 0x00000000)
T4E98 000:806.565 - 0.006ms returns 0
T4E98 000:806.572 JLINK_WriteReg(R5, 0x00000000)
T4E98 000:806.578 - 0.006ms returns 0
T4E98 000:806.585 JLINK_WriteReg(R6, 0x00000000)
T4E98 000:806.592 - 0.006ms returns 0
T4E98 000:806.599 JLINK_WriteReg(R7, 0x00000000)
T4E98 000:806.605 - 0.006ms returns 0
T4E98 000:806.612 JLINK_WriteReg(R8, 0x00000000)
T4E98 000:806.619 - 0.006ms returns 0
T4E98 000:806.626 JLINK_WriteReg(R9, 0x200005B4)
T4E98 000:806.633 - 0.006ms returns 0
T4E98 000:806.640 JLINK_WriteReg(R10, 0x00000000)
T4E98 000:806.647 - 0.006ms returns 0
T4E98 000:806.654 JLINK_WriteReg(R11, 0x00000000)
T4E98 000:806.660 - 0.006ms returns 0
T4E98 000:806.667 JLINK_WriteReg(R12, 0x00000000)
T4E98 000:806.674 - 0.006ms returns 0
T4E98 000:806.681 JLINK_WriteReg(R13 (SP), 0x20002000)
T4E98 000:806.687 - 0.006ms returns 0
T4E98 000:806.694 JLINK_WriteReg(R14, 0x20000001)
T4E98 000:806.701 - 0.006ms returns 0
T4E98 000:806.708 JLINK_WriteReg(R15 (PC), 0x20000288)
T4E98 000:806.714 - 0.006ms returns 0
T4E98 000:806.721 JLINK_WriteReg(XPSR, 0x01000000)
T4E98 000:806.728 - 0.006ms returns 0
T4E98 000:806.735 JLINK_WriteReg(MSP, 0x20002000)
T4E98 000:806.741 - 0.006ms returns 0
T4E98 000:806.748 JLINK_WriteReg(PSP, 0x20002000)
T4E98 000:806.755 - 0.006ms returns 0
T4E98 000:806.762 JLINK_WriteReg(CFBP, 0x00000000)
T4E98 000:806.769 - 0.006ms returns 0
T4E98 000:806.776 JLINK_SetBPEx(Addr = 0x20000000, Type = 0xFFFFFFF2)
T4E98 000:806.783 - 0.007ms returns 0x00000008
T4E98 000:806.791 JLINK_Go()
T4E98 000:806.803   CPU_ReadMem(4 bytes @ 0xE0001000)
T4E98 000:809.908 - 3.117ms 
T4E98 000:809.925 JLINK_IsHalted()
T4E98 000:810.487 - 0.561ms returns FALSE
T4E98 000:810.499 JLINK_HasError()
T4E98 000:811.763 JLINK_IsHalted()
T4E98 000:814.227   CPU_ReadMem(2 bytes @ 0x20000000)
T4E98 000:814.863 - 3.099ms returns TRUE
T4E98 000:814.874 JLINK_ReadReg(R15 (PC))
T4E98 000:814.883 - 0.008ms returns 0x20000000
T4E98 000:814.890 JLINK_ClrBPEx(BPHandle = 0x00000008)
T4E98 000:814.897 - 0.006ms returns 0x00
T4E98 000:814.904 JLINK_ReadReg(R0)
T4E98 000:814.963 - 0.059ms returns 0x00000000
T4E98 000:815.406 JLINK_HasError()
T4E98 000:815.423 JLINK_WriteReg(R0, 0x0002E000)
T4E98 000:815.431 - 0.008ms returns 0
T4E98 000:815.438 JLINK_WriteReg(R1, 0x00001000)
T4E98 000:815.445 - 0.007ms returns 0
T4E98 000:815.452 JLINK_WriteReg(R2, 0x000000FF)
T4E98 000:815.459 - 0.006ms returns 0
T4E98 000:815.466 JLINK_WriteReg(R3, 0x00000000)
T4E98 000:815.472 - 0.006ms returns 0
T4E98 000:815.479 JLINK_WriteReg(R4, 0x00000000)
T4E98 000:815.486 - 0.006ms returns 0
T4E98 000:815.493 JLINK_WriteReg(R5, 0x00000000)
T4E98 000:815.500 - 0.006ms returns 0
T4E98 000:815.507 JLINK_WriteReg(R6, 0x00000000)
T4E98 000:815.514 - 0.006ms returns 0
T4E98 000:815.521 JLINK_WriteReg(R7, 0x00000000)
T4E98 000:815.528 - 0.006ms returns 0
T4E98 000:815.535 JLINK_WriteReg(R8, 0x00000000)
T4E98 000:815.542 - 0.006ms returns 0
T4E98 000:815.549 JLINK_WriteReg(R9, 0x200005B4)
T4E98 000:815.555 - 0.006ms returns 0
T4E98 000:815.562 JLINK_WriteReg(R10, 0x00000000)
T4E98 000:815.569 - 0.006ms returns 0
T4E98 000:815.576 JLINK_WriteReg(R11, 0x00000000)
T4E98 000:815.582 - 0.006ms returns 0
T4E98 000:815.589 JLINK_WriteReg(R12, 0x00000000)
T4E98 000:815.596 - 0.006ms returns 0
T4E98 000:815.603 JLINK_WriteReg(R13 (SP), 0x20002000)
T4E98 000:815.609 - 0.006ms returns 0
T4E98 000:815.617 JLINK_WriteReg(R14, 0x20000001)
T4E98 000:815.623 - 0.006ms returns 0
T4E98 000:815.630 JLINK_WriteReg(R15 (PC), 0x20000288)
T4E98 000:815.637 - 0.006ms returns 0
T4E98 000:815.643 JLINK_WriteReg(XPSR, 0x01000000)
T4E98 000:815.650 - 0.006ms returns 0
T4E98 000:815.657 JLINK_WriteReg(MSP, 0x20002000)
T4E98 000:815.664 - 0.006ms returns 0
T4E98 000:815.671 JLINK_WriteReg(PSP, 0x20002000)
T4E98 000:815.677 - 0.006ms returns 0
T4E98 000:815.684 JLINK_WriteReg(CFBP, 0x00000000)
T4E98 000:815.690 - 0.006ms returns 0
T4E98 000:815.698 JLINK_SetBPEx(Addr = 0x20000000, Type = 0xFFFFFFF2)
T4E98 000:815.705 - 0.007ms returns 0x00000009
T4E98 000:815.712 JLINK_Go()
T4E98 000:815.725   CPU_ReadMem(4 bytes @ 0xE0001000)
T4E98 000:819.529 - 3.816ms 
T4E98 000:819.551 JLINK_IsHalted()
T4E98 000:820.308 - 0.757ms returns FALSE
T4E98 000:820.327 JLINK_HasError()
T4E98 000:821.427 JLINK_IsHalted()
T4E98 000:824.186   CPU_ReadMem(2 bytes @ 0x20000000)
T4E98 000:824.962 - 3.534ms returns TRUE
T4E98 000:824.981 JLINK_ReadReg(R15 (PC))
T4E98 000:824.989 - 0.008ms returns 0x20000000
T4E98 000:824.996 JLINK_ClrBPEx(BPHandle = 0x00000009)
T4E98 000:825.002 - 0.006ms returns 0x00
T4E98 000:825.008 JLINK_ReadReg(R0)
T4E98 000:825.014 - 0.006ms returns 0x00000000
T4E98 000:825.349 JLINK_HasError()
T4E98 000:825.363 JLINK_WriteReg(R0, 0x0002F000)
T4E98 000:825.370 - 0.007ms returns 0
T4E98 000:825.376 JLINK_WriteReg(R1, 0x00001000)
T4E98 000:825.382 - 0.006ms returns 0
T4E98 000:825.389 JLINK_WriteReg(R2, 0x000000FF)
T4E98 000:825.394 - 0.005ms returns 0
T4E98 000:825.401 JLINK_WriteReg(R3, 0x00000000)
T4E98 000:825.407 - 0.005ms returns 0
T4E98 000:825.413 JLINK_WriteReg(R4, 0x00000000)
T4E98 000:825.419 - 0.006ms returns 0
T4E98 000:825.426 JLINK_WriteReg(R5, 0x00000000)
T4E98 000:825.431 - 0.005ms returns 0
T4E98 000:825.438 JLINK_WriteReg(R6, 0x00000000)
T4E98 000:825.444 - 0.005ms returns 0
T4E98 000:825.450 JLINK_WriteReg(R7, 0x00000000)
T4E98 000:825.456 - 0.005ms returns 0
T4E98 000:825.462 JLINK_WriteReg(R8, 0x00000000)
T4E98 000:825.468 - 0.005ms returns 0
T4E98 000:825.475 JLINK_WriteReg(R9, 0x200005B4)
T4E98 000:825.480 - 0.005ms returns 0
T4E98 000:825.487 JLINK_WriteReg(R10, 0x00000000)
T4E98 000:825.492 - 0.006ms returns 0
T4E98 000:825.499 JLINK_WriteReg(R11, 0x00000000)
T4E98 000:825.505 - 0.005ms returns 0
T4E98 000:825.511 JLINK_WriteReg(R12, 0x00000000)
T4E98 000:825.517 - 0.005ms returns 0
T4E98 000:825.523 JLINK_WriteReg(R13 (SP), 0x20002000)
T4E98 000:825.529 - 0.006ms returns 0
T4E98 000:825.535 JLINK_WriteReg(R14, 0x20000001)
T4E98 000:825.542 - 0.006ms returns 0
T4E98 000:825.548 JLINK_WriteReg(R15 (PC), 0x20000288)
T4E98 000:825.554 - 0.006ms returns 0
T4E98 000:825.567 JLINK_WriteReg(XPSR, 0x01000000)
T4E98 000:825.573 - 0.006ms returns 0
T4E98 000:825.579 JLINK_WriteReg(MSP, 0x20002000)
T4E98 000:825.585 - 0.005ms returns 0
T4E98 000:825.591 JLINK_WriteReg(PSP, 0x20002000)
T4E98 000:825.597 - 0.005ms returns 0
T4E98 000:825.604 JLINK_WriteReg(CFBP, 0x00000000)
T4E98 000:825.609 - 0.005ms returns 0
T4E98 000:825.616 JLINK_SetBPEx(Addr = 0x20000000, Type = 0xFFFFFFF2)
T4E98 000:825.622 - 0.006ms returns 0x0000000A
T4E98 000:825.629 JLINK_Go()
T4E98 000:825.639   CPU_ReadMem(4 bytes @ 0xE0001000)
T4E98 000:829.164 - 3.534ms 
T4E98 000:829.211 JLINK_IsHalted()
T4E98 000:829.943 - 0.732ms returns FALSE
T4E98 000:829.966 JLINK_HasError()
T4E98 000:831.079 JLINK_IsHalted()
T4E98 000:833.993   CPU_ReadMem(2 bytes @ 0x20000000)
T4E98 000:834.779 - 3.700ms returns TRUE
T4E98 000:834.804 JLINK_ReadReg(R15 (PC))
T4E98 000:834.813 - 0.008ms returns 0x20000000
T4E98 000:834.820 JLINK_ClrBPEx(BPHandle = 0x0000000A)
T4E98 000:834.826 - 0.006ms returns 0x00
T4E98 000:834.833 JLINK_ReadReg(R0)
T4E98 000:834.840 - 0.006ms returns 0x00000000
T4E98 000:835.314 JLINK_HasError()
T4E98 000:835.328 JLINK_WriteReg(R0, 0x00030000)
T4E98 000:835.335 - 0.007ms returns 0
T4E98 000:835.342 JLINK_WriteReg(R1, 0x00001000)
T4E98 000:835.348 - 0.006ms returns 0
T4E98 000:835.355 JLINK_WriteReg(R2, 0x000000FF)
T4E98 000:835.360 - 0.005ms returns 0
T4E98 000:835.367 JLINK_WriteReg(R3, 0x00000000)
T4E98 000:835.373 - 0.005ms returns 0
T4E98 000:835.379 JLINK_WriteReg(R4, 0x00000000)
T4E98 000:835.385 - 0.005ms returns 0
T4E98 000:835.409 JLINK_WriteReg(R5, 0x00000000)
T4E98 000:835.415 - 0.006ms returns 0
T4E98 000:835.421 JLINK_WriteReg(R6, 0x00000000)
T4E98 000:835.427 - 0.005ms returns 0
T4E98 000:835.433 JLINK_WriteReg(R7, 0x00000000)
T4E98 000:835.439 - 0.005ms returns 0
T4E98 000:835.445 JLINK_WriteReg(R8, 0x00000000)
T4E98 000:835.451 - 0.005ms returns 0
T4E98 000:835.457 JLINK_WriteReg(R9, 0x200005B4)
T4E98 000:835.463 - 0.005ms returns 0
T4E98 000:835.470 JLINK_WriteReg(R10, 0x00000000)
T4E98 000:835.476 - 0.005ms returns 0
T4E98 000:835.482 JLINK_WriteReg(R11, 0x00000000)
T4E98 000:835.488 - 0.005ms returns 0
T4E98 000:835.494 JLINK_WriteReg(R12, 0x00000000)
T4E98 000:835.500 - 0.005ms returns 0
T4E98 000:835.506 JLINK_WriteReg(R13 (SP), 0x20002000)
T4E98 000:835.512 - 0.006ms returns 0
T4E98 000:835.519 JLINK_WriteReg(R14, 0x20000001)
T4E98 000:835.525 - 0.005ms returns 0
T4E98 000:835.531 JLINK_WriteReg(R15 (PC), 0x20000288)
T4E98 000:835.537 - 0.005ms returns 0
T4E98 000:835.543 JLINK_WriteReg(XPSR, 0x01000000)
T4E98 000:835.549 - 0.005ms returns 0
T4E98 000:835.555 JLINK_WriteReg(MSP, 0x20002000)
T4E98 000:835.561 - 0.005ms returns 0
T4E98 000:835.568 JLINK_WriteReg(PSP, 0x20002000)
T4E98 000:835.574 - 0.006ms returns 0
T4E98 000:835.580 JLINK_WriteReg(CFBP, 0x00000000)
T4E98 000:835.586 - 0.006ms returns 0
T4E98 000:835.593 JLINK_SetBPEx(Addr = 0x20000000, Type = 0xFFFFFFF2)
T4E98 000:835.600 - 0.007ms returns 0x0000000B
T4E98 000:835.606 JLINK_Go()
T4E98 000:835.639   CPU_ReadMem(4 bytes @ 0xE0001000)
T4E98 000:838.987 - 3.380ms 
T4E98 000:839.016 JLINK_IsHalted()
T4E98 000:839.754 - 0.737ms returns FALSE
T4E98 000:839.778 JLINK_HasError()
T4E98 000:840.872 JLINK_IsHalted()
T4E98 000:843.680   CPU_ReadMem(2 bytes @ 0x20000000)
T4E98 000:844.312 - 3.440ms returns TRUE
T4E98 000:844.333 JLINK_ReadReg(R15 (PC))
T4E98 000:844.342 - 0.008ms returns 0x20000000
T4E98 000:844.349 JLINK_ClrBPEx(BPHandle = 0x0000000B)
T4E98 000:844.356 - 0.006ms returns 0x00
T4E98 000:844.363 JLINK_ReadReg(R0)
T4E98 000:844.370 - 0.006ms returns 0x00000000
T4E98 000:844.626 JLINK_HasError()
T4E98 000:844.640 JLINK_WriteReg(R0, 0x00000001)
T4E98 000:844.648 - 0.007ms returns 0
T4E98 000:844.655 JLINK_WriteReg(R1, 0x00001000)
T4E98 000:844.662 - 0.006ms returns 0
T4E98 000:844.669 JLINK_WriteReg(R2, 0x000000FF)
T4E98 000:844.676 - 0.006ms returns 0
T4E98 000:844.683 JLINK_WriteReg(R3, 0x00000000)
T4E98 000:844.695 - 0.012ms returns 0
T4E98 000:844.706 JLINK_WriteReg(R4, 0x00000000)
T4E98 000:844.713 - 0.006ms returns 0
T4E98 000:844.720 JLINK_WriteReg(R5, 0x00000000)
T4E98 000:844.727 - 0.007ms returns 0
T4E98 000:844.734 JLINK_WriteReg(R6, 0x00000000)
T4E98 000:844.741 - 0.006ms returns 0
T4E98 000:844.748 JLINK_WriteReg(R7, 0x00000000)
T4E98 000:844.755 - 0.006ms returns 0
T4E98 000:844.762 JLINK_WriteReg(R8, 0x00000000)
T4E98 000:844.768 - 0.006ms returns 0
T4E98 000:844.775 JLINK_WriteReg(R9, 0x200005B4)
T4E98 000:844.782 - 0.006ms returns 0
T4E98 000:844.789 JLINK_WriteReg(R10, 0x00000000)
T4E98 000:844.795 - 0.006ms returns 0
T4E98 000:844.802 JLINK_WriteReg(R11, 0x00000000)
T4E98 000:844.809 - 0.006ms returns 0
T4E98 000:844.816 JLINK_WriteReg(R12, 0x00000000)
T4E98 000:844.822 - 0.006ms returns 0
T4E98 000:844.829 JLINK_WriteReg(R13 (SP), 0x20002000)
T4E98 000:844.836 - 0.006ms returns 0
T4E98 000:844.878 JLINK_WriteReg(R14, 0x20000001)
T4E98 000:844.885 - 0.006ms returns 0
T4E98 000:844.892 JLINK_WriteReg(R15 (PC), 0x20000060)
T4E98 000:844.898 - 0.006ms returns 0
T4E98 000:844.906 JLINK_WriteReg(XPSR, 0x01000000)
T4E98 000:844.912 - 0.006ms returns 0
T4E98 000:844.919 JLINK_WriteReg(MSP, 0x20002000)
T4E98 000:844.925 - 0.006ms returns 0
T4E98 000:844.932 JLINK_WriteReg(PSP, 0x20002000)
T4E98 000:844.939 - 0.006ms returns 0
T4E98 000:844.946 JLINK_WriteReg(CFBP, 0x00000000)
T4E98 000:844.952 - 0.006ms returns 0
T4E98 000:844.960 JLINK_SetBPEx(Addr = 0x20000000, Type = 0xFFFFFFF2)
T4E98 000:844.967 - 0.007ms returns 0x0000000C
T4E98 000:844.974 JLINK_Go()
T4E98 000:844.985   CPU_ReadMem(4 bytes @ 0xE0001000)
T4E98 000:847.991 - 3.016ms 
T4E98 000:848.024 JLINK_IsHalted()
T4E98 000:850.788   CPU_ReadMem(2 bytes @ 0x20000000)
T4E98 000:851.311 - 3.286ms returns TRUE
T4E98 000:851.331 JLINK_ReadReg(R15 (PC))
T4E98 000:851.340 - 0.009ms returns 0x20000000
T4E98 000:851.348 JLINK_ClrBPEx(BPHandle = 0x0000000C)
T4E98 000:851.355 - 0.007ms returns 0x00
T4E98 000:851.364 JLINK_ReadReg(R0)
T4E98 000:851.371 - 0.006ms returns 0x00000000
T4E98 000:913.395 JLINK_WriteMem(0x20000000, 0x5B8 Bytes, ...)
T4E98 000:913.432   Data:  00 BE 0A E0 0D 78 2D 06 68 40 08 24 40 00 00 D3 ...
T4E98 000:913.482   CPU_WriteMem(1464 bytes @ 0x20000000)
T4E98 000:919.272 - 5.876ms returns 0x5B8
T4E98 000:919.468 JLINK_HasError()
T4E98 000:919.488 JLINK_WriteReg(R0, 0x00000000)
T4E98 000:919.500 - 0.012ms returns 0
T4E98 000:919.509 JLINK_WriteReg(R1, 0x03D09000)
T4E98 000:919.516 - 0.007ms returns 0
T4E98 000:919.524 JLINK_WriteReg(R2, 0x00000002)
T4E98 000:919.531 - 0.007ms returns 0
T4E98 000:919.539 JLINK_WriteReg(R3, 0x00000000)
T4E98 000:919.546 - 0.007ms returns 0
T4E98 000:919.554 JLINK_WriteReg(R4, 0x00000000)
T4E98 000:919.561 - 0.007ms returns 0
T4E98 000:919.569 JLINK_WriteReg(R5, 0x00000000)
T4E98 000:919.577 - 0.007ms returns 0
T4E98 000:919.584 JLINK_WriteReg(R6, 0x00000000)
T4E98 000:919.592 - 0.007ms returns 0
T4E98 000:919.599 JLINK_WriteReg(R7, 0x00000000)
T4E98 000:919.606 - 0.007ms returns 0
T4E98 000:919.614 JLINK_WriteReg(R8, 0x00000000)
T4E98 000:919.621 - 0.007ms returns 0
T4E98 000:919.629 JLINK_WriteReg(R9, 0x200005B4)
T4E98 000:919.636 - 0.007ms returns 0
T4E98 000:919.644 JLINK_WriteReg(R10, 0x00000000)
T4E98 000:919.650 - 0.007ms returns 0
T4E98 000:919.658 JLINK_WriteReg(R11, 0x00000000)
T4E98 000:919.665 - 0.007ms returns 0
T4E98 000:919.676 JLINK_WriteReg(R12, 0x00000000)
T4E98 000:919.684 - 0.008ms returns 0
T4E98 000:919.693 JLINK_WriteReg(R13 (SP), 0x20002000)
T4E98 000:919.704 - 0.010ms returns 0
T4E98 000:919.712 JLINK_WriteReg(R14, 0x20000001)
T4E98 000:919.719 - 0.007ms returns 0
T4E98 000:919.727 JLINK_WriteReg(R15 (PC), 0x20000020)
T4E98 000:919.734 - 0.007ms returns 0
T4E98 000:919.742 JLINK_WriteReg(XPSR, 0x01000000)
T4E98 000:919.750 - 0.007ms returns 0
T4E98 000:919.758 JLINK_WriteReg(MSP, 0x20002000)
T4E98 000:919.765 - 0.007ms returns 0
T4E98 000:919.773 JLINK_WriteReg(PSP, 0x20002000)
T4E98 000:919.780 - 0.007ms returns 0
T4E98 000:919.798 JLINK_WriteReg(CFBP, 0x00000000)
T4E98 000:919.805 - 0.007ms returns 0
T4E98 000:919.814 JLINK_SetBPEx(Addr = 0x20000000, Type = 0xFFFFFFF2)
T4E98 000:919.828   CPU_ReadMem(2 bytes @ 0x20000000)
T4E98 000:920.899 - 1.084ms returns 0x0000000D
T4E98 000:920.954 JLINK_Go()
T4E98 000:920.968   CPU_WriteMem(2 bytes @ 0x20000000)
T4E98 000:922.028   CPU_ReadMem(4 bytes @ 0xE0001000)
T4E98 000:926.831 - 5.876ms 
T4E98 000:926.897 JLINK_IsHalted()
T4E98 000:930.104   CPU_ReadMem(2 bytes @ 0x20000000)
T4E98 000:931.017 - 4.119ms returns TRUE
T4E98 000:931.053 JLINK_ReadReg(R15 (PC))
T4E98 000:931.079 - 0.026ms returns 0x20000000
T4E98 000:931.091 JLINK_ClrBPEx(BPHandle = 0x0000000D)
T4E98 000:931.110 - 0.019ms returns 0x00
T4E98 000:931.128 JLINK_ReadReg(R0)
T4E98 000:931.143 - 0.014ms returns 0x00000000
T4E98 000:931.672 JLINK_WriteMem(0x200005C8, 0x238 Bytes, ...)
T4E98 000:931.693   Data:  C0 63 00 20 C5 73 02 00 CD 73 02 00 CF 73 02 00 ...
T4E98 000:931.720   CPU_WriteMem(568 bytes @ 0x200005C8)
T4E98 000:934.621 - 2.949ms returns 0x238
T4E98 000:934.656 JLINK_WriteMem(0x20000800, 0x400 Bytes, ...)
T4E98 000:934.666   Data:  07 E0 C3 EA 02 03 40 E8 01 34 00 2C E9 D1 4F F0 ...
T4E98 000:934.691   CPU_WriteMem(1024 bytes @ 0x20000800)
T4E98 000:938.895 - 4.237ms returns 0x400
T4E98 000:938.944 JLINK_WriteMem(0x20000C00, 0x400 Bytes, ...)
T4E98 000:938.962   Data:  C1 F3 13 01 41 F4 80 11 C3 F3 13 03 43 F4 80 13 ...
T4E98 000:938.990   CPU_WriteMem(1024 bytes @ 0x20000C00)
T4E98 000:943.249 - 4.305ms returns 0x400
T4E98 000:943.271 JLINK_WriteMem(0x20001000, 0x400 Bytes, ...)
T4E98 000:943.278   Data:  01 E0 00 22 13 46 1B EB 07 00 46 EB 0A 51 BD E8 ...
T4E98 000:943.295   CPU_WriteMem(1024 bytes @ 0x20001000)
T4E98 000:947.446 - 4.173ms returns 0x400
T4E98 000:947.499 JLINK_WriteMem(0x20001400, 0x1C8 Bytes, ...)
T4E98 000:947.506   Data:  C3 FC 53 EC 18 2B FF F7 DE FB FF F7 E1 FC A8 63 ...
T4E98 000:947.545   CPU_WriteMem(456 bytes @ 0x20001400)
T4E98 000:950.046 - 2.546ms returns 0x1C8
T4E98 000:950.076 JLINK_HasError()
T4E98 000:950.087 JLINK_WriteReg(R0, 0x00027000)
T4E98 000:950.097 - 0.010ms returns 0
T4E98 000:950.105 JLINK_WriteReg(R1, 0x00001000)
T4E98 000:950.112 - 0.006ms returns 0
T4E98 000:950.208 JLINK_WriteReg(R2, 0x200005C8)
T4E98 000:950.229 - 0.021ms returns 0
T4E98 000:950.237 JLINK_WriteReg(R3, 0x00000000)
T4E98 000:950.244 - 0.006ms returns 0
T4E98 000:950.255 JLINK_WriteReg(R4, 0x00000000)
T4E98 000:950.261 - 0.006ms returns 0
T4E98 000:950.268 JLINK_WriteReg(R5, 0x00000000)
T4E98 000:950.274 - 0.006ms returns 0
T4E98 000:950.280 JLINK_WriteReg(R6, 0x00000000)
T4E98 000:950.286 - 0.005ms returns 0
T4E98 000:950.292 JLINK_WriteReg(R7, 0x00000000)
T4E98 000:950.298 - 0.005ms returns 0
T4E98 000:950.305 JLINK_WriteReg(R8, 0x00000000)
T4E98 000:950.311 - 0.006ms returns 0
T4E98 000:950.317 JLINK_WriteReg(R9, 0x200005B4)
T4E98 000:950.323 - 0.005ms returns 0
T4E98 000:950.329 JLINK_WriteReg(R10, 0x00000000)
T4E98 000:950.335 - 0.005ms returns 0
T4E98 000:950.342 JLINK_WriteReg(R11, 0x00000000)
T4E98 000:950.350 - 0.008ms returns 0
T4E98 000:950.357 JLINK_WriteReg(R12, 0x00000000)
T4E98 000:950.363 - 0.006ms returns 0
T4E98 000:950.370 JLINK_WriteReg(R13 (SP), 0x20002000)
T4E98 000:950.377 - 0.006ms returns 0
T4E98 000:950.383 JLINK_WriteReg(R14, 0x20000001)
T4E98 000:950.389 - 0.006ms returns 0
T4E98 000:950.396 JLINK_WriteReg(R15 (PC), 0x20000154)
T4E98 000:950.402 - 0.006ms returns 0
T4E98 000:950.408 JLINK_WriteReg(XPSR, 0x01000000)
T4E98 000:950.414 - 0.005ms returns 0
T4E98 000:950.421 JLINK_WriteReg(MSP, 0x20002000)
T4E98 000:950.426 - 0.005ms returns 0
T4E98 000:950.433 JLINK_WriteReg(PSP, 0x20002000)
T4E98 000:950.438 - 0.005ms returns 0
T4E98 000:950.445 JLINK_WriteReg(CFBP, 0x00000000)
T4E98 000:950.450 - 0.005ms returns 0
T4E98 000:950.458 JLINK_SetBPEx(Addr = 0x20000000, Type = 0xFFFFFFF2)
T4E98 000:950.465 - 0.008ms returns 0x0000000E
T4E98 000:950.472 JLINK_Go()
T4E98 000:950.484   CPU_ReadMem(4 bytes @ 0xE0001000)
T4E98 000:954.032 - 3.559ms 
T4E98 000:954.055 JLINK_IsHalted()
T4E98 000:954.969 - 0.912ms returns FALSE
T4E98 000:954.988 JLINK_HasError()
T4E98 000:958.988 JLINK_IsHalted()
T4E98 000:959.887 - 0.898ms returns FALSE
T4E98 000:959.906 JLINK_HasError()
T4E98 000:961.149 JLINK_IsHalted()
T4E98 000:962.024 - 0.874ms returns FALSE
T4E98 000:962.047 JLINK_HasError()
T4E98 000:963.260 JLINK_IsHalted()
T4E98 000:964.141 - 0.880ms returns FALSE
T4E98 000:964.162 JLINK_HasError()
T4E98 000:965.322 JLINK_IsHalted()
T4E98 000:966.113 - 0.790ms returns FALSE
T4E98 000:966.133 JLINK_HasError()
T4E98 000:967.640 JLINK_IsHalted()
T4E98 000:968.404 - 0.763ms returns FALSE
T4E98 000:968.422 JLINK_HasError()
T4E98 000:969.826 JLINK_IsHalted()
T4E98 000:970.528 - 0.701ms returns FALSE
